Time [s],Channel 0,Channel 1
0.000000000,1,0
0.006622833,1,1
0.006623833,1,0
0.006625083,1,1
0.006625750,1,0
0.006637417,1,1
0.006638250,1,0
0.006652917,1,1
0.006653583,1,0
0.006654167,1,1
0.006654750,1,0
0.006655583,1,1
0.006656167,1,0
0.006656583,1,1
0.006656750,1,0
0.006656917,1,1
0.006657083,1,0
0.006657250,1,1
0.006657417,1,0
0.006657833,1,1
0.006658000,1,0
0.006658083,1,1
0.006658333,1,0
0.006658417,1,1
0.006658583,1,0
0.006658750,1,1
0.006659083,1,0
0.006659250,1,1
0.006659333,1,0
0.006659417,1,1
0.006659500,1,0
0.006659583,1,1
0.006659750,1,0
0.006659917,1,1
0.006660000,1,0
0.006660083,1,1
0.006660250,1,0
0.006660333,1,1
0.006660417,1,0
0.006660500,1,1
0.006660583,1,0
0.006660750,1,1
0.006660833,1,0
0.006660917,1,1
0.006661000,1,0
0.006661083,1,1
0.006661167,1,0
0.006661250,1,1
0.006661417,1,0
0.006661583,1,1
0.006661750,1,0
0.006661833,1,1
0.006661917,0,0
0.006662000,0,1
0.006662083,0,0
0.006662167,0,1
0.006662250,0,0
0.006662417,0,1
0.006662583,0,0
0.006662667,0,1
0.006662750,0,0
0.006662833,0,1
0.006662917,0,0
0.006663000,0,1
0.006663083,0,0
0.006663167,0,1
0.006663333,0,0
0.006663417,0,1
0.006663500,0,0
0.006663583,0,1
0.006663750,0,0
0.006663833,0,1
0.006663917,0,0
0.006664000,0,1
0.006664167,0,0
0.006664333,0,1
0.006664500,0,0
0.006664583,0,1
0.006664667,0,0
0.006664833,0,1
0.006664917,0,0
0.006665000,0,1
0.006665167,0,0
0.006665333,0,1
0.006665417,0,0
0.006665500,0,1
0.006665667,0,0
0.006665750,0,1
0.006665833,0,0
0.006666000,0,1
0.006666083,0,0
0.006666167,0,1
0.006666333,0,0
0.006666417,0,1
0.006666500,0,0
0.006666667,0,1
0.006666750,0,0
0.006666833,0,1
0.006667000,0,0
0.006667167,0,1
0.006667250,0,0
0.006667333,0,1
0.006667500,0,0
0.006667667,0,1
0.006667833,0,0
0.006668000,0,1
0.006668083,0,0
0.006668167,0,1
0.006668250,0,0
0.006668333,0,1
0.006668417,0,0
0.006668500,0,1
0.006668583,0,0
0.006668667,0,1
0.006668833,0,0
0.006669000,0,1
0.006669083,0,0
0.006669167,0,1
0.006669250,0,0
0.006669333,0,1
0.006669500,0,0
0.006669667,0,1
0.006669833,0,0
0.006670167,0,1
0.006670250,0,0
0.006670333,0,1
0.006670500,0,0
0.006670833,0,1
0.006671000,0,0
0.006671167,0,1
0.006671333,0,0
0.006671500,0,1
0.006671667,0,0
0.006671750,0,1
0.006671833,0,0
0.006672000,0,1
0.006672083,0,0
0.006672167,0,1
0.006672250,0,0
0.006672333,0,1
0.006672417,0,0
0.006672500,0,1
0.006672667,0,0
0.006672750,0,1
0.006672833,0,0
0.006673167,0,1
0.006673250,0,0
0.006673333,0,1
0.006673500,0,0
0.006673583,0,1
0.006673667,0,0
0.006673833,0,1
0.006673917,0,0
0.006674000,0,1
0.006674167,0,0
0.006674333,0,1
0.006674417,0,0
0.006674500,0,1
0.006674667,0,0
0.006674750,0,1
0.006674833,0,0
0.006674917,0,1
0.006675000,0,0
0.006675333,0,1
0.006675417,0,0
0.006675500,0,1
0.006675667,0,0
0.006675833,0,1
0.006676000,0,0
0.006676083,0,1
0.006676167,0,0
0.006676333,0,1
0.006676500,0,0
0.006676667,0,1
0.006676833,0,0
0.006677167,0,1
0.006677250,0,0
0.006677333,0,1
0.006677417,0,0
0.006677500,0,1
0.006677583,0,0
0.006677667,0,1
0.006677833,0,0
0.006678000,0,1
0.006678167,0,0
0.006678250,0,1
0.006678333,0,0
0.006678500,0,1
0.006678667,0,0
0.006678750,0,1
0.006678833,0,0
0.006678917,0,1
0.006679000,0,0
0.006679250,0,1
0.006679333,0,0
0.006679417,0,1
0.006679500,0,0
0.006679667,0,1
0.006679833,0,0
0.006680250,0,1
0.006680333,0,0
0.006680583,0,1
0.006680667,0,0
0.006680750,0,1
0.006680833,0,0
0.006681000,0,1
0.006681167,0,0
0.006681500,0,1
0.006681667,0,0
0.006681917,0,1
0.006682000,0,0
0.006682250,0,1
0.006682333,0,0
0.006682500,0,1
0.006682583,0,0
0.006683250,0,1
0.006683333,0,0
0.006683667,0,1
0.006683750,0,0
0.006683917,0,1
0.006684000,0,0
0.006684417,0,1
0.006684500,0,0
0.006684750,0,1
0.006684833,0,0
0.006685167,0,1
0.006685250,0,0
0.006686083,0,1
0.006686167,0,0
0.006686333,0,1
0.006686417,0,0
0.006687583,0,1
0.006687667,0,0
0.006687833,0,1
0.006688000,0,0
0.006688167,0,1
0.006688333,0,0
0.006689333,0,1
0.006689500,0,0
0.006689833,0,1
0.006689917,0,0
0.006690083,0,1
0.006690167,0,0
0.006690333,0,1
0.006690500,0,0
0.006690833,0,1
0.006691000,0,0
0.006691167,0,1
0.006691333,0,0
0.006691500,0,1
0.006691667,0,0
0.006691833,0,1
0.006691917,0,0
0.006692083,0,1
0.006692167,0,0
0.006692333,0,1
0.006692500,0,0
0.006692667,0,1
0.006692750,0,0
0.006692917,0,1
0.006693000,0,0
0.006693167,0,1
0.006693250,0,0
0.006693417,0,1
0.006693500,0,0
0.006693667,0,1
0.006693833,0,0
0.006694000,0,1
0.006694167,0,0
0.006694333,0,1
0.006694417,0,0
0.006694917,0,1
0.006695000,0,0
0.006695500,0,1
0.006695583,0,0
0.006695917,0,1
0.006696000,0,0
0.006696500,0,1
0.006696667,0,0
0.006696917,0,1
0.006697000,0,0
0.006697333,0,1
0.006697417,0,0
0.006697583,0,1
0.006697667,0,0
0.006698500,0,1
0.006698583,0,0
0.006699083,0,1
0.006699167,0,0
0.006699500,0,1
0.006699583,0,0
0.006699750,0,1
0.006699833,0,0
0.006700083,0,1
0.006700167,0,0
0.006700500,0,1
0.006700667,0,0
0.006701167,0,1
0.006701333,0,0
0.006701417,0,1
0.006701500,0,0
0.006701750,0,1
0.006701833,0,0
0.006702083,0,1
0.006702167,0,0
0.006702500,0,1
0.006702667,0,0
0.006702917,0,1
0.006703000,0,0
0.006703333,0,1
0.006703500,0,0
0.006703833,0,1
0.006704000,0,0
0.006704333,0,1
0.006704417,0,0
0.006704500,0,1
0.006704583,0,0
0.006704667,0,1
0.006704833,0,0
0.006704917,0,1
0.006705000,0,0
0.006705250,0,1
0.006705333,0,0
0.006705583,0,1
0.006705667,0,0
0.006705833,0,1
0.006705917,0,0
0.006706000,0,1
0.006706083,0,0
0.006706167,0,1
0.006706333,0,0
0.006706583,0,1
0.006706667,0,0
0.006706833,0,1
0.006706917,0,0
0.006707000,0,1
0.006707083,0,0
0.006707167,0,1
0.006707250,0,0
0.006707333,0,1
0.006707500,0,0
0.006707583,0,1
0.006707667,0,0
0.006707917,0,1
0.006708000,0,0
0.006708083,0,1
0.006708167,0,0
0.006708250,0,1
0.006708333,0,0
0.006708417,0,1
0.006708500,0,0
0.006708583,0,1
0.006708667,0,0
0.006708750,0,1
0.006708833,0,0
0.006709000,0,1
0.006709083,0,0
0.006709167,0,1
0.006709250,0,0
0.006709333,0,1
0.006709417,0,0
0.006709500,0,1
0.006709667,0,0
0.006709750,0,1
0.006709833,0,0
0.006710000,0,1
0.006710083,0,0
0.006710167,0,1
0.006710250,0,0
0.006710333,0,1
0.006710417,0,0
0.006710500,0,1
0.006710667,0,0
0.006710750,0,1
0.006710833,0,0
0.006711083,0,1
0.006711167,0,0
0.006711417,0,1
0.006711500,0,0
0.006711583,0,1
0.006711667,0,0
0.006711750,0,1
0.006711833,0,0
0.006712000,0,1
0.006712083,0,0
0.006712167,0,1
0.006712333,0,0
0.006712417,0,1
0.006712500,0,0
0.006712750,0,1
0.006712833,0,0
0.006713000,0,1
0.006713083,0,0
0.006713167,0,1
0.006713250,0,0
0.006713333,0,1
0.006713500,0,0
0.006713667,0,1
0.006713750,0,0
0.006713833,0,1
0.006713917,0,0
0.006714000,0,1
0.006714083,0,0
0.006714167,0,1
0.006714333,0,0
0.006714500,0,1
0.006714583,0,0
0.006714667,0,1
0.006714833,0,0
0.006714917,0,1
0.006715000,0,0
0.006715250,0,1
0.006715333,0,0
0.006715417,0,1
0.006715500,0,0
0.006715583,0,1
0.006715667,0,0
0.006715750,0,1
0.006715833,0,0
0.006715917,0,1
0.006716000,0,0
0.006716167,0,1
0.006716250,0,0
0.006716333,0,1
0.006716500,0,0
0.006716583,0,1
0.006716667,0,0
0.006716750,0,1
0.006716833,0,0
0.006716917,0,1
0.006717000,0,0
0.006717083,0,1
0.006717167,0,0
0.006717250,0,1
0.006717333,0,0
0.006717500,0,1
0.006717583,0,0
0.006717667,0,1
0.006717750,0,0
0.006717833,0,1
0.006718000,0,0
0.006718083,0,1
0.006718167,0,0
0.006718417,0,1
0.006718500,0,0
0.006718667,0,1
0.006718833,0,0
0.006718917,0,1
0.006719000,0,0
0.006719083,0,1
0.006719167,0,0
0.006719250,0,1
0.006719333,0,0
0.006719417,0,1
0.006719500,0,0
0.006719667,0,1
0.006719750,0,0
0.006719833,0,1
0.006719917,0,0
0.006720000,0,1
0.006720083,0,0
0.006720167,0,1
0.006720250,0,0
0.006720333,0,1
0.006720500,0,0
0.006720667,0,1
0.006720833,0,0
0.006720917,0,1
0.006721000,0,0
0.006721167,0,1
0.006721333,0,0
0.006721500,0,1
0.006721583,0,0
0.006721667,0,1
0.006721750,0,0
0.006721833,0,1
0.006721917,0,0
0.006722000,0,1
0.006722167,0,0
0.006722333,0,1
0.006722417,0,0
0.006722500,0,1
0.006722667,0,0
0.006722750,0,1
0.006722833,0,0
0.006722917,0,1
0.006723000,0,0
0.006723167,0,1
0.006723333,0,0
0.006723417,0,1
0.006723500,0,0
0.006723583,0,1
0.006723667,0,0
0.006723750,0,1
0.006723833,0,0
0.006724000,0,1
0.006724083,0,0
0.006724167,0,1
0.006724333,0,0
0.006724500,0,1
0.006724667,0,0
0.006724750,0,1
0.006724833,0,0
0.006725000,0,1
0.006725083,0,0
0.006725167,0,1
0.006725333,0,0
0.006725500,0,1
0.006725667,0,0
0.006725833,0,1
0.006726000,0,0
0.006726167,0,1
0.006726250,0,0
0.006726333,0,1
0.006726417,0,0
0.006726500,0,1
0.006726750,0,0
0.006726833,0,1
0.006726917,0,0
0.006727000,0,1
0.006727167,0,0
0.006727250,0,1
0.006727417,0,0
0.006727583,0,1
0.006727750,0,0
0.006727833,0,1
0.006727917,0,0
0.006728000,0,1
0.006728083,0,0
0.006728250,0,1
0.006728417,0,0
0.006728500,0,1
0.006728583,0,0
0.006728667,0,1
0.006728750,0,0
0.006728917,0,1
0.006729083,0,0
0.006729167,0,1
0.006729250,0,0
0.006729417,0,1
0.006729500,0,0
0.006729583,0,1
0.006729750,0,0
0.006729833,0,1
0.006729917,0,0
0.006730000,0,1
0.006730083,0,0
0.006730167,0,1
0.006730250,0,0
0.006730417,0,1
0.006730500,0,0
0.006730583,0,1
0.006730750,0,0
0.006730833,0,1
0.006730917,0,0
0.006731000,0,1
0.006731083,0,0
0.006731167,0,1
0.006731250,0,0
0.006731333,0,1
0.006731417,0,0
0.006731500,0,1
0.006731583,0,0
0.006731750,0,1
0.006731917,0,0
0.006732083,0,1
0.006732250,0,0
0.006732333,0,1
0.006732417,0,0
0.006732583,0,1
0.006732750,0,0
0.006732833,0,1
0.006732917,0,0
0.006733000,0,1
0.006733083,0,0
0.006733250,0,1
0.006733333,0,0
0.006733417,0,1
0.006733500,0,0
0.006733583,0,1
0.006733750,0,0
0.006733917,0,1
0.006734083,0,0
0.006734167,0,1
0.006734250,0,0
0.006734417,0,1
0.006734500,0,0
0.006734583,0,1
0.006734750,0,0
0.006734917,0,1
0.006735083,0,0
0.006735250,0,1
0.006735333,0,0
0.006735417,0,1
0.006735500,0,0
0.006735583,0,1
0.006735750,0,0
0.006735833,0,1
0.006735917,0,0
0.006736000,0,1
0.006736083,0,0
0.006736167,0,1
0.006736250,0,0
0.006736333,0,1
0.006736417,0,0
0.006736583,0,1
0.006736667,0,0
0.006736750,0,1
0.006736833,0,0
0.006736917,0,1
0.006737083,0,0
0.006737250,0,1
0.006737333,0,0
0.006737417,0,1
0.006737500,0,0
0.006737583,0,1
0.006737667,0,0
0.006737750,0,1
0.006737833,0,0
0.006737917,0,1
0.006738083,0,0
0.006738167,0,1
0.006738250,0,0
0.006738417,0,1
0.006738667,0,0
0.006738750,0,1
0.006738917,0,0
0.006739083,0,1
0.006739250,0,0
0.006739417,0,1
0.006739667,0,0
0.006739750,0,1
0.006739917,0,0
0.006740000,0,1
0.006740083,0,0
0.006740167,0,1
0.006740250,0,0
0.006740333,0,1
0.006740417,0,0
0.006740500,0,1
0.006740583,0,0
0.006740667,0,1
0.006740750,0,0
0.006740833,0,1
0.006740917,0,0
0.006741083,0,1
0.006741167,1,1
0.006741250,1,0
0.006741417,1,1
0.006741583,1,0
0.006741750,1,1
0.006742000,1,0
0.006742083,1,1
0.006742250,1,0
0.006742417,1,1
0.006742667,1,0
0.006742750,1,1
0.006742833,1,0
0.006742917,1,1
0.006743000,1,0
0.006743417,1,1
0.006743500,1,0
0.006743917,1,1
0.006744083,1,0
0.006744167,1,1
0.006744250,1,0
0.006744333,1,1
0.006744417,1,0
0.006744583,1,1
0.006744750,1,0
0.006745083,1,1
0.006745417,1,0
0.006745917,1,1
0.006746250,1,0
0.006746500,1,1
0.006746667,1,0
0.006746750,1,1
0.006747083,1,0
0.006747417,1,1
0.006747750,1,0
0.006748000,1,1
0.006748083,1,0
0.006748417,1,1
0.006748667,1,0
0.006748750,1,1
0.006748833,1,0
0.006748917,1,1
0.006749000,1,0
0.006749250,1,1
0.006749417,1,0
0.006749583,1,1
0.006749833,1,0
0.006749917,1,1
0.006750000,1,0
0.006750083,1,1
0.006750250,1,0
0.006750417,1,1
0.006750917,1,0
0.006751083,1,1
0.006751667,1,0
0.006751750,1,1
0.006751833,1,0
0.006751917,1,1
0.006752083,1,0
0.006752417,1,1
0.006752583,1,0
0.006752833,1,1
0.006752917,1,0
0.006753083,1,1
0.006753417,1,0
0.006753500,1,1
0.006753583,1,0
0.006753917,1,1
0.006754083,1,0
0.006754250,1,1
0.006754417,1,0
0.006754583,1,1
0.006754917,1,0
0.006755083,1,1
0.006755250,1,0
0.006755667,1,1
0.006755750,1,0
0.006756250,1,1
0.006756583,1,0
0.006757250,1,1
0.006757583,1,0
0.006757750,1,1
0.006757917,1,0
0.006758083,1,1
0.006758250,1,0
0.006758417,1,1
0.006758583,1,0
0.006759583,1,1
0.006759750,1,0
0.006760083,1,1
0.006760417,1,0
0.006760750,1,1
0.006761083,1,0
0.006761583,1,1
0.006762083,1,0
0.006762417,1,1
0.006762750,1,0
0.006762917,1,1
0.006763083,1,0
0.006763250,1,1
0.006763417,1,0
0.006763917,1,1
0.006764250,1,0
0.006765417,1,1
0.006765667,1,0
0.006765833,1,1
0.006765917,1,0
0.006766083,1,1
0.006766250,1,0
0.006766417,1,1
0.006766750,1,0
0.006767250,1,1
0.006767417,1,0
0.006768250,1,1
0.006768917,1,0
0.006769583,1,1
0.006770417,1,0
0.006771583,1,1
0.006771917,1,0
0.006772250,1,1
0.006772417,1,0
0.006772917,1,1
0.006773083,1,0
0.006775417,1,1
0.006775583,1,0
0.006776167,1,1
0.006776250,1,0
0.006776417,1,1
0.006776750,1,0
0.006777583,1,1
0.006777750,1,0
0.006778750,1,1
0.006778917,1,0
0.006779583,1,1
0.006779750,1,0
0.006779917,1,1
0.006780083,1,0
0.006780583,1,1
0.006780750,1,0
0.006781083,1,1
0.006781250,1,0
0.006781917,1,1
0.006782083,1,0
0.006782917,1,1
0.006783083,1,0
0.006783833,1,1
0.006783917,1,0
0.006785500,1,1
0.006785667,1,0
0.006785750,1,1
0.006785917,1,0
0.006786750,1,1
0.006786917,1,0
0.006787500,1,1
0.006788083,1,0
0.006788417,1,1
0.006788583,1,0
0.006788917,1,1
0.006789083,1,0
0.006789917,1,1
0.006790250,1,0
0.006790500,1,1
0.006790583,1,0
0.006791750,1,1
0.006791917,1,0
0.006792083,1,1
0.006792250,1,0
0.006792833,1,1
0.006792917,1,0
0.006794250,1,1
0.006794583,1,0
0.006795000,1,1
0.006795083,1,0
0.006795917,1,1
0.006796417,1,0
0.006799583,1,1
0.006799750,1,0
0.006802333,1,1
0.006802500,1,0
0.006803750,1,1
0.006804000,1,0
0.006806083,1,1
0.006806250,1,0
0.006807417,1,1
0.006807750,1,0
0.006813417,1,1
0.006813583,1,0
0.006817667,1,1
0.006817750,1,0
0.006818000,1,1
0.006818167,1,0
0.006820417,1,1
0.006820583,1,0
0.006821583,1,1
0.006822083,1,0
0.006823083,1,1
0.006823417,1,0
0.006823917,1,1
0.006824417,1,0
0.006825250,1,1
0.006825417,1,0
0.006825917,1,1
0.006826083,1,0
0.006826250,1,1
0.006826917,1,0
0.006827250,1,1
0.006827583,1,0
0.006827667,1,1
0.006827833,1,0
0.006827917,1,1
0.006828417,1,0
0.006828583,1,1
0.006828833,1,0
0.006828917,1,1
0.006829083,1,0
0.006829500,1,1
0.006829833,1,0
0.006829917,1,1
0.006830083,1,0
0.006830417,1,1
0.006830917,1,0
0.006831083,1,1
0.006831583,1,0
0.006831750,1,1
0.006831917,1,0
0.006832167,1,1
0.006832417,1,0
0.006832583,1,1
0.006832917,1,0
0.006833167,1,1
0.006833250,1,0
0.006833583,1,1
0.006834083,1,0
0.006834583,1,1
0.006834750,1,0
0.006834917,1,1
0.006835417,1,0
0.006835583,1,1
0.006835750,1,0
0.006836000,1,1
0.006836250,1,0
0.006836417,1,1
0.006836583,1,0
0.006836917,1,1
0.006837250,1,0
0.006837417,1,1
0.006837750,1,0
0.006838083,1,1
0.006838417,1,0
0.006838500,1,1
0.006838667,1,0
0.006838750,1,1
0.006838917,1,0
0.006839000,1,1
0.006839083,1,0
0.006839250,1,1
0.006839500,1,0
0.006839583,1,1
0.006839750,1,0
0.006840000,1,1
0.006840083,1,0
0.006840167,1,1
0.006840250,1,0
0.006840417,1,1
0.006840667,1,0
0.006840917,1,1
0.006841000,1,0
0.006841250,1,1
0.006841417,1,0
0.006841750,1,1
0.006841917,1,0
0.006842000,1,1
0.006842083,1,0
0.006842250,1,1
0.006842417,1,0
0.006842833,1,1
0.006842917,1,0
0.006843000,1,1
0.006843083,1,0
0.006843250,1,1
0.006843417,1,0
0.006843750,1,1
0.006843917,1,0
0.006844583,1,1
0.006844917,1,0
0.006845083,1,1
0.006845250,1,0
0.006845583,1,1
0.006845667,1,0
0.006845750,1,1
0.006846000,1,0
0.006846083,1,1
0.006846250,1,0
0.006846417,1,1
0.006846583,1,0
0.006846667,1,1
0.006846750,1,0
0.006847083,1,1
0.006847250,1,0
0.006847417,1,1
0.006847917,1,0
0.006848083,1,1
0.006848250,1,0
0.006848583,1,1
0.006848833,1,0
0.006849000,1,1
0.006849083,1,0
0.006849250,1,1
0.006849333,1,0
0.006849417,1,1
0.006849750,1,0
0.006849833,1,1
0.006849917,1,0
0.006850000,1,1
0.006850083,1,0
0.006850417,1,1
0.006850750,1,0
0.006851083,1,1
0.006851250,1,0
0.006851417,1,1
0.006851583,1,0
0.006852083,1,1
0.006852333,1,0
0.006852667,1,1
0.006852750,1,0
0.006853083,1,1
0.006853583,1,0
0.006854917,1,1
0.006855083,1,0
0.006855750,1,1
0.006855917,1,0
0.006856167,1,1
0.006856250,1,0
0.006857583,1,1
0.006857750,1,0
0.006858000,1,1
0.006858167,1,0
0.006858250,1,1
0.006858583,1,0
0.006859000,1,1
0.006859167,1,0
0.006859833,1,1
0.006859917,1,0
0.006860583,1,1
0.006860750,1,0
0.006861750,1,1
0.006861917,1,0
0.006862333,1,1
0.006862583,1,0
0.006864583,1,1
0.006864750,1,0
0.006866417,1,1
0.006866583,1,0
0.006868417,1,1
0.006868583,1,0
0.006869667,1,1
0.006870583,1,0
0.006871333,1,1
0.006872333,1,0
0.006882333,1,1
0.006882500,1,0
0.012067583,1,1
0.012067750,1,0
0.012070083,1,1
0.012071083,1,0
0.012076250,1,1
0.012076750,1,0
0.012077083,1,1
0.012077417,1,0
0.012077750,1,1
0.012077917,1,0
0.012078583,1,1
0.012078750,1,0
0.012078917,1,1
0.012079333,1,0
0.012079417,1,1
0.012079583,1,0
0.012079917,1,1
0.012080250,1,0
0.012080417,1,1
0.012080750,1,0
0.012081083,1,1
0.012081333,1,0
0.012081667,1,1
0.012081750,1,0
0.012081833,1,1
0.012081917,1,0
0.012082000,1,1
0.012082333,1,0
0.012082500,1,1
0.012082583,1,0
0.012082667,1,1
0.012082833,1,0
0.012083000,1,1
0.012083167,1,0
0.012083250,1,1
0.012083333,1,0
0.012083500,1,1
0.012083667,1,0
0.012083833,1,1
0.012084000,1,0
0.012084167,1,1
0.012084250,1,0
0.012084333,1,1
0.012084417,1,0
0.012084500,1,1
0.012084667,1,0
0.012084750,1,1
0.012084833,1,0
0.012084917,1,1
0.012085000,1,0
0.012085167,1,1
0.012085333,1,0
0.012085500,1,1
0.012085583,1,0
0.012085667,1,1
0.012085833,1,0
0.012085917,1,1
0.012086000,1,0
0.012086083,1,1
0.012086167,1,0
0.012086250,1,1
0.012086333,1,0
0.012086417,1,1
0.012086500,1,0
0.012086583,1,1
0.012086667,1,0
0.012086833,1,1
0.012086917,1,0
0.012087000,1,1
0.012087167,0,0
0.012087333,0,1
0.012087500,0,0
0.012087583,0,1
0.012087667,0,0
0.012087750,0,1
0.012087833,0,0
0.012087917,0,1
0.012088000,0,0
0.012088167,0,1
0.012088333,0,0
0.012088417,0,1
0.012088500,0,0
0.012088667,0,1
0.012088833,0,0
0.012089000,0,1
0.012089167,0,0
0.012089250,0,1
0.012089500,0,0
0.012089667,0,1
0.012090000,0,0
0.012090167,0,1
0.012090333,0,0
0.012090417,0,1
0.012090500,0,0
0.012090583,0,1
0.012090667,0,0
0.012090750,0,1
0.012090833,0,0
0.012090917,0,1
0.012091000,0,0
0.012091083,0,1
0.012091167,0,0
0.012091333,0,1
0.012091500,0,0
0.012091667,0,1
0.012091833,0,0
0.012091917,0,1
0.012092000,0,0
0.012092167,0,1
0.012092333,0,0
0.012092500,0,1
0.012092667,0,0
0.012092750,0,1
0.012092833,0,0
0.012093000,0,1
0.012093167,0,0
0.012093333,0,1
0.012093500,0,0
0.012093583,0,1
0.012093667,0,0
0.012093833,0,1
0.012094000,0,0
0.012094083,0,1
0.012094167,0,0
0.012094250,0,1
0.012094333,0,0
0.012094417,0,1
0.012094500,0,0
0.012094583,0,1
0.012094667,0,0
0.012094750,0,1
0.012094833,0,0
0.012094917,0,1
0.012095000,0,0
0.012095167,0,1
0.012095250,0,0
0.012095333,0,1
0.012095500,0,0
0.012095667,0,1
0.012095833,0,0
0.012095917,0,1
0.012096000,0,0
0.012096167,0,1
0.012096250,0,0
0.012096333,0,1
0.012096500,0,0
0.012096667,0,1
0.012096833,0,0
0.012097000,0,1
0.012097167,0,0
0.012097250,0,1
0.012097333,0,0
0.012097417,0,1
0.012097500,0,0
0.012097583,0,1
0.012097667,0,0
0.012097833,0,1
0.012097917,0,0
0.012098000,0,1
0.012098167,0,0
0.012098333,0,1
0.012098500,0,0
0.012098583,0,1
0.012098667,0,0
0.012098833,0,1
0.012099000,0,0
0.012099083,0,1
0.012099167,0,0
0.012099333,0,1
0.012099500,0,0
0.012099667,0,1
0.012099833,0,0
0.012099917,0,1
0.012100000,0,0
0.012100167,0,1
0.012100333,0,0
0.012100500,0,1
0.012100667,0,0
0.012100833,0,1
0.012101000,0,0
0.012101167,0,1
0.012101333,0,0
0.012101417,0,1
0.012101500,0,0
0.012101667,0,1
0.012101750,0,0
0.012101833,0,1
0.012101917,0,0
0.012102000,0,1
0.012102167,0,0
0.012102250,0,1
0.012102333,0,0
0.012102500,0,1
0.012102667,0,0
0.012102833,0,1
0.012103000,0,0
0.012103083,0,1
0.012103167,0,0
0.012103333,0,1
0.012103500,0,0
0.012103667,0,1
0.012103750,0,0
0.012103833,0,1
0.012104000,0,0
0.012104167,0,1
0.012104250,0,0
0.012104333,0,1
0.012104500,0,0
0.012104583,0,1
0.012104667,0,0
0.012104750,0,1
0.012104833,0,0
0.012104917,0,1
0.012105000,0,0
0.012105167,0,1
0.012105333,0,0
0.012105500,0,1
0.012105583,0,0
0.012105667,0,1
0.012105750,0,0
0.012105833,0,1
0.012106000,0,0
0.012106083,0,1
0.012106167,0,0
0.012106250,0,1
0.012106333,0,0
0.012106417,0,1
0.012106500,0,0
0.012106583,0,1
0.012106667,0,0
0.012106833,0,1
0.012106917,0,0
0.012107000,0,1
0.012107083,0,0
0.012107167,0,1
0.012107333,0,0
0.012107500,0,1
0.012107667,0,0
0.012107833,0,1
0.012107917,0,0
0.012108000,0,1
0.012108083,0,0
